T2140 027:926 SEGGER J-Link V5.00c Log File (0001ms, 1648ms total)
T2140 027:926 DLL Compiled: Jun 11 2015 11:40:27 (0001ms, 1648ms total)
T2140 027:926 Logging started @ 2021-12-11 21:53 (0001ms, 1648ms total)
T2140 027:927 JLINK_SetWarnOutHandler(...) (0000ms, 1648ms total)
T2140 027:927 JLINK_OpenEx(...)
Firmware: J-Link ARM-OB STM32 compiled Aug 22 2012 19:52:04
Hardware: V7.00
S/N: 20090928
Feature(s): RDI,FlashDL,FlashBP,JFlash,GDBFullDevice "CORTEX-M4" selected.  returns O.K. (0259ms, 1907ms total)
T2140 028:186 JLINK_GetEmuCaps()  returns 0x88EA5833 (0000ms, 1907ms total)
T2140 028:187 JLINK_TIF_GetAvailable(...) (0000ms, 1907ms total)
T2140 028:187 JLINK_SetErrorOutHandler(...) (0000ms, 1907ms total)
T2140 028:187 JLINK_ExecCommand("ProjectFile = "E:\Programmer\HAL_test\TIM2_test\MDK-ARM\JLinkSettings.ini"", ...)Device "CORTEX-M4" selected.  returns 0x00 (0000ms, 1907ms total)
T2140 028:187 JLINK_ExecCommand("Device = STM32F407VETx", ...)Device "CORTEX-M4" selected.  returns 0x00 (0000ms, 1907ms total)
T2140 028:187 JLINK_ExecCommand("DisableConnectionTimeout", ...)  returns 0x01 (0000ms, 1907ms total)
T2140 028:187 JLINK_GetHardwareVersion()  returns 0x11170 (0000ms, 1907ms total)
T2140 028:187 JLINK_GetDLLVersion()  returns 50003 (0000ms, 1907ms total)
T2140 028:187 JLINK_GetFirmwareString(...) (0000ms, 1907ms total)
T2140 028:187 JLINK_GetDLLVersion()  returns 50003 (0001ms, 1908ms total)
T2140 028:188 JLINK_GetCompileDateTime() (0000ms, 1908ms total)
T2140 028:188 JLINK_GetFirmwareString(...) (0000ms, 1908ms total)
T2140 028:188 JLINK_GetHardwareVersion()  returns 0x11170 (0000ms, 1908ms total)
T2140 028:188 JLINK_TIF_Select(JLINKARM_TIF_SWD)  returns 0x00 (0001ms, 1909ms total)
T2140 028:189 JLINK_SetSpeed(5000) (0000ms, 1909ms total)
T2140 028:190 JLINK_GetId() >0x108 TIF>Found SWD-DP with ID 0x2BA01477 >0x0D TIF> >0x21 TIF> >0x0D TIF> >0x28 TIF> >0x0D TIF> >0x28 TIF> >0x0D TIF> >0x21 TIF> >0x0D TIF> >0x28 TIF> >0x0D TIF> >0x21 TIF> >0x0D TIF> >0x21 TIF> >0x0D TIF> >0x21 TIF> >0x0D TIF> >0x21 TIF> >0x0D TIF> >0x28 TIF> >0x0D TIF> >0x28 TIF> >0x0D TIF> >0x21 TIF> >0x0D TIF> >0x28 TIF> >0x0D TIF> >0x28 TIF> >0x0D TIF> >0x28 TIF> >0x0D TIF> >0x21 TIF> >0x0D TIF> >0x21 TIF> >0x0D TIF> >0x28 TIF> >0x0D TIF> >0x21 TIF> >0x0D TIF>
 >0x21 TIF>Found Cortex-M4 r0p1, Little endian. -- CPU_WriteMem(4 bytes @ 0xE0002000) -- CPU_ReadMem(4 bytes @ 0xE000EDF0) -- CPU_ReadMem(4 bytes @ 0xE0002000)FPUnit: 6 code (BP) slots and 2 literal slots -- CPU_ReadMem(4 bytes @ 0xE000EDFC) -- CPU_ReadMem(4 bytes @ 0xE0001000) -- CPU_WriteMem(4 bytes @ 0xE0001000) -- CPU_ReadMem(4 bytes @ 0xE000ED88) -- CPU_WriteMem(4 bytes @ 0xE000ED88) -- CPU_ReadMem(4 bytes @ 0xE000ED88) -- CPU_WriteMem(4 bytes @ 0xE000ED88)CoreSight components:ROMTbl 0 @ E00FF000
 -- CPU_ReadMem(16 bytes @ 0xE00FF000) -- CPU_ReadMem(16 bytes @ 0xE000EFF0) -- CPU_ReadMem(16 bytes @ 0xE000EFE0)ROMTbl 0 [0]: FFF0F000, CID: B105E00D, PID: 000BB00C SCS -- CPU_ReadMem(16 bytes @ 0xE0001FF0) -- CPU_ReadMem(16 bytes @ 0xE0001FE0)ROMTbl 0 [1]: FFF02000, CID: B105E00D, PID: 003BB002 DWT -- CPU_ReadMem(16 bytes @ 0xE0002FF0) -- CPU_ReadMem(16 bytes @ 0xE0002FE0)ROMTbl 0 [2]: FFF03000, CID: B105E00D, PID: 002BB003 FPB -- CPU_ReadMem(16 bytes @ 0xE0000FF0)
 -- CPU_ReadMem(16 bytes @ 0xE0000FE0)ROMTbl 0 [3]: FFF01000, CID: B105E00D, PID: 003BB001 ITM -- CPU_ReadMem(16 bytes @ 0xE00FF010) -- CPU_ReadMem(16 bytes @ 0xE0040FF0) -- CPU_ReadMem(16 bytes @ 0xE0040FE0)ROMTbl 0 [4]: FFF41000, CID: B105900D, PID: 000BB9A1 TPIU -- CPU_ReadMem(16 bytes @ 0xE0041FF0) -- CPU_ReadMem(16 bytes @ 0xE0041FE0)ROMTbl 0 [5]: FFF42000, CID: B105900D, PID: 000BB925 ETM >0x0D TIF> >0x21 TIF>  returns 0x2BA01477 (0033ms, 1942ms total)
T2140 028:223 JLINK_GetDLLVersion()  returns 50003 (0000ms, 1942ms total)
T2140 028:223 JLINK_CORE_GetFound()  returns 0xE0000FF (0000ms, 1942ms total)
T2140 028:223 JLINK_GetDebugInfo(0x100) -- Value=0xE00FF003  returns 0x00 (0000ms, 1942ms total)
T2140 028:223 JLINK_GetDebugInfo(0x100) -- Value=0xE00FF003  returns 0x00 (0000ms, 1942ms total)
T2140 028:223 JLINK_GetDebugInfo(0x101)  returns 0xFFFFFFFF (0000ms, 1942ms total)
T2140 028:223 JLINK_ReadMemEx(0xE0041FF0, 0x0010 Bytes, ..., AccessWidth = 33554436) -- CPU is running -- CPU_ReadMem(16 bytes @ 0xE0041FF0) - Data: 0D 00 00 00 90 00 00 00 05 00 00 00 B1 00 00 00  returns 0x10 (0001ms, 1943ms total)
T2140 028:224 JLINK_ReadMemEx(0xE0041FD0, 0x0020 Bytes, ..., AccessWidth = 33554436) -- CPU is running -- CPU_ReadMem(32 bytes @ 0xE0041FD0) - Data: 04 00 00 00 00 00 00 00 00 00 00 00 00 00 00 00 ...  returns 0x20 (0001ms, 1944ms total)
T2140 028:225 JLINK_GetDebugInfo(0x102)  returns 0xFFFFFFFF (0000ms, 1944ms total)
T2140 028:225 JLINK_GetDebugInfo(0x103)  returns 0xFFFFFFFF (0000ms, 1944ms total)
T2140 028:225 JLINK_ReadMemEx(0xE0040FF0, 0x0010 Bytes, ..., AccessWidth = 33554436) -- CPU is running -- CPU_ReadMem(16 bytes @ 0xE0040FF0) - Data: 0D 00 00 00 90 00 00 00 05 00 00 00 B1 00 00 00  returns 0x10 (0001ms, 1945ms total)
T2140 028:226 JLINK_GetDebugInfo(0x104)  returns 0xFFFFFFFF (0000ms, 1945ms total)
T2140 028:226 JLINK_GetDebugInfo(0x105)  returns 0xFFFFFFFF (0000ms, 1945ms total)
T2140 028:226 JLINK_GetDebugInfo(0x106)  returns 0xFFFFFFFF (0000ms, 1945ms total)
T2140 028:226 JLINK_GetDebugInfo(0x107)  returns 0xFFFFFFFF (0000ms, 1945ms total)
T2140 028:226 JLINK_GetDebugInfo(0x10C)  returns 0xFFFFFFFF (0000ms, 1945ms total)
T2140 028:226 JLINK_GetDebugInfo(0x01)  returns 0xFFFFFFFF (0000ms, 1945ms total)
T2140 028:226 JLINK_GetDeviceFamily()  returns 14 (0000ms, 1945ms total)
T2140 028:226 JLINK_ReadMemU32(0xE000ED00, 0x0001 Items, ...) -- CPU is running -- CPU_ReadMem(4 bytes @ 0xE000ED00) - Data: 41 C2 0F 41  returns 0x01 (0001ms, 1946ms total)
T2140 028:227 JLINK_GetDebugInfo(0x10F)  returns 0xFFFFFFFF (0000ms, 1946ms total)
T2140 028:227 JLINK_SetResetType(JLINKARM_RESET_TYPE_NORMAL)  returns JLINKARM_RESET_TYPE_NORMAL (0000ms, 1946ms total)
T2140 028:227 JLINK_Reset() -- CPU is running -- CPU_WriteMem(4 bytes @ 0xE000EDF0) -- CPU is running -- CPU_WriteMem(4 bytes @ 0xE000EDFC) >0x35 TIF> -- CPU is running -- CPU_WriteMem(4 bytes @ 0xE000ED0C) -- CPU is running -- CPU_ReadMem(4 bytes @ 0xE000EDF0) -- CPU is running -- CPU_ReadMem(4 bytes @ 0xE000EDF0) -- CPU is running -- CPU_WriteMem(4 bytes @ 0xE000EDF0) -- CPU is running -- CPU_WriteMem(4 bytes @ 0xE000EDFC) -- CPU is running -- CPU_ReadMem(4 bytes @ 0xE000EDF0)
 -- CPU_WriteMem(4 bytes @ 0xE0002000) -- CPU_ReadMem(4 bytes @ 0xE000EDFC) -- CPU_ReadMem(4 bytes @ 0xE0001000) (0019ms, 1965ms total)
T2140 028:246 JLINK_ReadReg(R15 (PC))  returns 0x08000228 (0000ms, 1965ms total)
T2140 028:246 JLINK_ReadReg(XPSR)  returns 0x01000000 (0000ms, 1965ms total)
T2140 028:246 JLINK_Halt()  returns 0x00 (0000ms, 1965ms total)
T2140 028:246 JLINK_ReadMemU32(0xE000EDF0, 0x0001 Items, ...) -- CPU_ReadMem(4 bytes @ 0xE000EDF0) - Data: 03 00 03 00  returns 0x01 (0001ms, 1966ms total)
T2140 028:247 JLINK_WriteU32(0xE000EDF0, 0xA05F0003) -- CPU_WriteMem(4 bytes @ 0xE000EDF0)  returns 0x00 (0000ms, 1966ms total)
T2140 028:247 JLINK_WriteU32(0xE000EDFC, 0x01000000) -- CPU_WriteMem(4 bytes @ 0xE000EDFC)  returns 0x00 (0001ms, 1967ms total)
T2140 028:248 JLINK_GetHWStatus(...)  returns 0x00 (0000ms, 1967ms total)
T2140 028:248 JLINK_GetNumBPUnits(Type = 0xFFFFFF00)  returns 0x06 (0000ms, 1967ms total)
T2140 028:248 JLINK_GetNumBPUnits(Type = 0xF0)  returns 0x2000 (0000ms, 1967ms total)
T2140 028:248 JLINK_GetNumWPUnits()  returns 0x04 (0000ms, 1967ms total)
T2140 028:248 JLINK_GetSpeed()  returns 0xFA0 (0000ms, 1967ms total)
T2140 028:248 JLINK_ReadMemU32(0xE000E004, 0x0001 Items, ...) -- CPU_ReadMem(4 bytes @ 0xE000E004) - Data: 02 00 00 00  returns 0x01 (0001ms, 1968ms total)
T2140 028:249 JLINK_ReadMemU32(0xE000E004, 0x0001 Items, ...) -- CPU_ReadMem(4 bytes @ 0xE000E004) - Data: 02 00 00 00  returns 0x01 (0001ms, 1969ms total)
T2140 028:250 JLINK_WriteMemEx(0xE0001000, 0x001C Bytes, ..., AccessWidth = 33554436) - Data: 01 00 00 00 00 00 00 00 00 00 00 00 00 00 00 00 ... -- CPU_WriteMem(28 bytes @ 0xE0001000)  returns 0x1C (0001ms, 1970ms total)
T2140 028:251 JLINK_ReadReg(R15 (PC))  returns 0x08000228 (0000ms, 1970ms total)
T2140 028:251 JLINK_ReadReg(XPSR)  returns 0x01000000 (0000ms, 1970ms total)
T2140 028:256 JLINK_ReadMemEx(0xE0001004, 0x0004 Bytes, ..., AccessWidth = 33554432)Mis-aligned memory read: Address: 0xE0001004, NumBytes: 4, Alignment: 2 (Halfword-aligned)
  ***** Mis-aligned memory read: Address: 0xE0001004, NumBytes: 4, Alignment: 2 (Halfword-aligned) -- CPU_ReadMem(4 bytes @ 0xE0001004) - Data: 00 00 00 00  returns 0x04 (0002ms, 1972ms total)
T2140 028:337 JLINK_SetResetType(JLINKARM_RESET_TYPE_NORMAL)  returns JLINKARM_RESET_TYPE_NORMAL (0000ms, 1972ms total)
T2140 028:337 JLINK_Reset() -- CPU_WriteMem(4 bytes @ 0xE000EDF0) -- CPU_WriteMem(4 bytes @ 0xE000EDFC) >0x35 TIF> -- CPU_WriteMem(4 bytes @ 0xE000ED0C) -- CPU_ReadMem(4 bytes @ 0xE000EDF0) -- CPU_ReadMem(4 bytes @ 0xE000EDF0) -- CPU_WriteMem(4 bytes @ 0xE000EDF0) -- CPU_WriteMem(4 bytes @ 0xE000EDFC) -- CPU is running -- CPU_ReadMem(4 bytes @ 0xE000EDF0) -- CPU_WriteMem(4 bytes @ 0xE0002000) -- CPU_ReadMem(4 bytes @ 0xE000EDFC) -- CPU_ReadMem(4 bytes @ 0xE0001000) (0020ms, 1992ms total)
T2140 028:357 JLINK_ReadReg(R15 (PC))  returns 0x08000228 (0000ms, 1992ms total)
T2140 028:357 JLINK_ReadReg(XPSR)  returns 0x01000000 (0000ms, 1992ms total)
T2140 028:357 JLINK_ReadMemEx(0x08000228, 0x003C Bytes, ..., AccessWidth = 33554432)Mis-aligned memory read: Address: 0x08000228, NumBytes: 60, Alignment: 2 (Halfword-aligned)
  ***** Mis-aligned memory read: Address: 0x08000228, NumBytes: 60, Alignment: 2 (Halfword-aligned) -- CPU_ReadMem(60 bytes @ 0x08000228) - Data: 09 48 80 47 09 48 00 47 FE E7 FE E7 FE E7 FE E7 ...  returns 0x3C (0002ms, 1994ms total)
T2140 029:594 JLINK_ReadReg(R0)  returns 0x00000000 (0001ms, 1995ms total)
T2140 029:595 JLINK_ReadReg(R1)  returns 0x00000000 (0000ms, 1995ms total)
T2140 029:595 JLINK_ReadReg(R2)  returns 0x00000000 (0000ms, 1995ms total)
T2140 029:595 JLINK_ReadReg(R3)  returns 0x00000000 (0000ms, 1995ms total)
T2140 029:595 JLINK_ReadReg(R4)  returns 0x00000000 (0000ms, 1995ms total)
T2140 029:595 JLINK_ReadReg(R5)  returns 0x00000000 (0000ms, 1995ms total)
T2140 029:595 JLINK_ReadReg(R6)  returns 0x00000000 (0000ms, 1995ms total)
T2140 029:595 JLINK_ReadReg(R7)  returns 0x00000000 (0000ms, 1995ms total)
T2140 029:595 JLINK_ReadReg(R8)  returns 0x00000000 (0000ms, 1995ms total)
T2140 029:595 JLINK_ReadReg(R9)  returns 0x00000000 (0000ms, 1995ms total)
T2140 029:595 JLINK_ReadReg(R10)  returns 0x00000000 (0000ms, 1995ms total)
T2140 029:595 JLINK_ReadReg(R11)  returns 0x00000000 (0000ms, 1995ms total)
T2140 029:595 JLINK_ReadReg(R12)  returns 0x00000000 (0000ms, 1995ms total)
T2140 029:595 JLINK_ReadReg(R13 (SP))  returns 0x20000700 (0000ms, 1995ms total)
T2140 029:595 JLINK_ReadReg(R14)  returns 0xFFFFFFFF (0000ms, 1995ms total)
T2140 029:595 JLINK_ReadReg(R15 (PC))  returns 0x08000228 (0000ms, 1995ms total)
T2140 029:595 JLINK_ReadReg(XPSR)  returns 0x01000000 (0000ms, 1995ms total)
T2140 029:595 JLINK_ReadReg(MSP)  returns 0x20000700 (0001ms, 1996ms total)
T2140 029:596 JLINK_ReadReg(PSP)  returns 0x00000000 (0000ms, 1996ms total)
T2140 029:596 JLINK_ReadReg(CFBP)  returns 0x00000000 (0000ms, 1996ms total)
T2140 029:596 JLINK_ReadReg(FPSCR)  returns 0x00000000 (0005ms, 2001ms total)
T2140 029:601 JLINK_ReadReg(FPS0)  returns 0x00000000 (0000ms, 2001ms total)
T2140 029:601 JLINK_ReadReg(FPS1)  returns 0x00000000 (0000ms, 2001ms total)
T2140 029:601 JLINK_ReadReg(FPS2)  returns 0x00000000 (0000ms, 2001ms total)
T2140 029:601 JLINK_ReadReg(FPS3)  returns 0x00000000 (0000ms, 2001ms total)
T2140 029:601 JLINK_ReadReg(FPS4)  returns 0x00000000 (0000ms, 2001ms total)
T2140 029:601 JLINK_ReadReg(FPS5)  returns 0x00000000 (0000ms, 2001ms total)
T2140 029:601 JLINK_ReadReg(FPS6)  returns 0x00000000 (0000ms, 2001ms total)
T2140 029:601 JLINK_ReadReg(FPS7)  returns 0x00000000 (0000ms, 2001ms total)
T2140 029:601 JLINK_ReadReg(FPS8)  returns 0x00000000 (0000ms, 2001ms total)
T2140 029:601 JLINK_ReadReg(FPS9)  returns 0x00000000 (0000ms, 2001ms total)
T2140 029:601 JLINK_ReadReg(FPS10)  returns 0x00000000 (0000ms, 2001ms total)
T2140 029:601 JLINK_ReadReg(FPS11)  returns 0x00000000 (0000ms, 2001ms total)
T2140 029:601 JLINK_ReadReg(FPS12)  returns 0x00000000 (0000ms, 2001ms total)
T2140 029:601 JLINK_ReadReg(FPS13)  returns 0x00000000 (0000ms, 2001ms total)
T2140 029:601 JLINK_ReadReg(FPS14)  returns 0x00000000 (0000ms, 2001ms total)
T2140 029:601 JLINK_ReadReg(FPS15)  returns 0x00000000 (0000ms, 2001ms total)
T2140 029:601 JLINK_ReadReg(FPS16)  returns 0x00000000 (0001ms, 2002ms total)
T2140 029:602 JLINK_ReadReg(FPS17)  returns 0x00000000 (0000ms, 2002ms total)
T2140 029:602 JLINK_ReadReg(FPS18)  returns 0x00000000 (0000ms, 2002ms total)
T2140 029:602 JLINK_ReadReg(FPS19)  returns 0x00000000 (0000ms, 2002ms total)
T2140 029:602 JLINK_ReadReg(FPS20)  returns 0x00000000 (0000ms, 2002ms total)
T2140 029:602 JLINK_ReadReg(FPS21)  returns 0x00000000 (0000ms, 2002ms total)
T2140 029:602 JLINK_ReadReg(FPS22)  returns 0x00000000 (0000ms, 2002ms total)
T2140 029:602 JLINK_ReadReg(FPS23)  returns 0x00000000 (0000ms, 2002ms total)
T2140 029:602 JLINK_ReadReg(FPS24)  returns 0x00000000 (0000ms, 2002ms total)
T2140 029:602 JLINK_ReadReg(FPS25)  returns 0x00000000 (0000ms, 2002ms total)
T2140 029:602 JLINK_ReadReg(FPS26)  returns 0x00000000 (0000ms, 2002ms total)
T2140 029:602 JLINK_ReadReg(FPS27)  returns 0x00000000 (0000ms, 2002ms total)
T2140 029:602 JLINK_ReadReg(FPS28)  returns 0x00000000 (0000ms, 2002ms total)
T2140 029:602 JLINK_ReadReg(FPS29)  returns 0x00000000 (0000ms, 2002ms total)
T2140 029:602 JLINK_ReadReg(FPS30)  returns 0x00000000 (0000ms, 2002ms total)
T2140 029:602 JLINK_ReadReg(FPS31)  returns 0x00000000 (0000ms, 2002ms total)
T3CFC 029:658 JLINK_ReadMemEx(0x08000228, 0x0002 Bytes, ..., AccessWidth = 33554432)Mis-aligned memory read: Address: 0x08000228, NumBytes: 2, Alignment: 2 (Halfword-aligned)
  ***** Mis-aligned memory read: Address: 0x08000228, NumBytes: 2, Alignment: 2 (Halfword-aligned) -- CPU_ReadMem(2 bytes @ 0x08000228) - Data: 09 48  returns 0x02 (0001ms, 2003ms total)
T3CFC 029:659 JLINK_SetBPEx(Addr = 0x08001384, Type = 0xFFFFFFF2)  returns 0x00000001 (0000ms, 2003ms total)
T3CFC 029:659 JLINK_Go() -- CPU_WriteMem(4 bytes @ 0xE0002000) -- CPU_ReadMem(4 bytes @ 0xE0001000) -- CPU_WriteMem(4 bytes @ 0xE0002008) -- CPU_WriteMem(4 bytes @ 0xE000200C) -- CPU_WriteMem(4 bytes @ 0xE0002010) -- CPU_WriteMem(4 bytes @ 0xE0002014) -- CPU_WriteMem(4 bytes @ 0xE0002018) -- CPU_WriteMem(4 bytes @ 0xE000201C) -- CPU_WriteMem(4 bytes @ 0xE0001004) (0005ms, 2008ms total)
T3CFC 029:765 JLINK_IsHalted()  returns TRUE (0004ms, 2012ms total)
T3CFC 029:769 JLINK_Halt()  returns 0x00 (0000ms, 2008ms total)
T3CFC 029:769 JLINK_IsHalted()  returns TRUE (0000ms, 2008ms total)
T3CFC 029:769 JLINK_IsHalted()  returns TRUE (0000ms, 2008ms total)
T3CFC 029:769 JLINK_IsHalted()  returns TRUE (0000ms, 2008ms total)
T3CFC 029:769 JLINK_ReadReg(R15 (PC))  returns 0x08001384 (0000ms, 2008ms total)
T3CFC 029:769 JLINK_ReadReg(XPSR)  returns 0x21000000 (0000ms, 2008ms total)
T3CFC 029:769 JLINK_ClrBPEx(BPHandle = 0x00000001)  returns 0x00 (0000ms, 2008ms total)
T3CFC 029:769 JLINK_ReadMemU32(0xE000ED30, 0x0001 Items, ...) -- CPU_ReadMem(4 bytes @ 0xE000ED30) - Data: 03 00 00 00  returns 0x01 (0000ms, 2008ms total)
T3CFC 029:769 JLINK_ReadMemU32(0xE0001028, 0x0001 Items, ...) -- CPU_ReadMem(4 bytes @ 0xE0001028) - Data: 00 00 00 00  returns 0x01 (0001ms, 2009ms total)
T3CFC 029:770 JLINK_ReadMemU32(0xE0001038, 0x0001 Items, ...) -- CPU_ReadMem(4 bytes @ 0xE0001038) - Data: 00 02 00 00  returns 0x01 (0001ms, 2010ms total)
T3CFC 029:771 JLINK_ReadMemU32(0xE0001048, 0x0001 Items, ...) -- CPU_ReadMem(4 bytes @ 0xE0001048) - Data: 00 00 00 00  returns 0x01 (0001ms, 2011ms total)
T3CFC 029:772 JLINK_ReadMemU32(0xE0001058, 0x0001 Items, ...) -- CPU_ReadMem(4 bytes @ 0xE0001058) - Data: 00 00 00 00  returns 0x01 (0001ms, 2012ms total)
T3CFC 029:773 JLINK_ReadReg(R0)  returns 0x20000100 (0000ms, 2012ms total)
T3CFC 029:773 JLINK_ReadReg(R1)  returns 0x20000300 (0000ms, 2012ms total)
T3CFC 029:773 JLINK_ReadReg(R2)  returns 0x20000300 (0000ms, 2012ms total)
T3CFC 029:773 JLINK_ReadReg(R3)  returns 0x20000300 (0000ms, 2012ms total)
T3CFC 029:773 JLINK_ReadReg(R4)  returns 0x00000000 (0000ms, 2012ms total)
T3CFC 029:773 JLINK_ReadReg(R5)  returns 0x200000A0 (0000ms, 2012ms total)
T3CFC 029:773 JLINK_ReadReg(R6)  returns 0x00000000 (0000ms, 2012ms total)
T3CFC 029:773 JLINK_ReadReg(R7)  returns 0x00000000 (0000ms, 2012ms total)
T3CFC 029:773 JLINK_ReadReg(R8)  returns 0x00000000 (0000ms, 2012ms total)
T3CFC 029:773 JLINK_ReadReg(R9)  returns 0x00000000 (0000ms, 2012ms total)
T3CFC 029:773 JLINK_ReadReg(R10)  returns 0x080013D4 (0000ms, 2012ms total)
T3CFC 029:773 JLINK_ReadReg(R11)  returns 0x00000000 (0000ms, 2012ms total)
T3CFC 029:773 JLINK_ReadReg(R12)  returns 0x200000E0 (0000ms, 2012ms total)
T3CFC 029:773 JLINK_ReadReg(R13 (SP))  returns 0x20000700 (0000ms, 2012ms total)
T3CFC 029:773 JLINK_ReadReg(R14)  returns 0x08000217 (0000ms, 2012ms total)
T3CFC 029:773 JLINK_ReadReg(R15 (PC))  returns 0x08001384 (0000ms, 2012ms total)
T3CFC 029:773 JLINK_ReadReg(XPSR)  returns 0x21000000 (0000ms, 2012ms total)
T3CFC 029:773 JLINK_ReadReg(MSP)  returns 0x20000700 (0000ms, 2012ms total)
T3CFC 029:773 JLINK_ReadReg(PSP)  returns 0x00000000 (0000ms, 2012ms total)
T3CFC 029:773 JLINK_ReadReg(CFBP)  returns 0x04000000 (0000ms, 2012ms total)
T3CFC 029:773 JLINK_ReadReg(FPSCR)  returns 0x03000000 (0006ms, 2018ms total)
T3CFC 029:779 JLINK_ReadReg(FPS0)  returns 0x00000000 (0000ms, 2018ms total)
T3CFC 029:779 JLINK_ReadReg(FPS1)  returns 0x00000000 (0000ms, 2018ms total)
T3CFC 029:779 JLINK_ReadReg(FPS2)  returns 0x00000000 (0000ms, 2018ms total)
T3CFC 029:779 JLINK_ReadReg(FPS3)  returns 0x00000000 (0000ms, 2018ms total)
T3CFC 029:779 JLINK_ReadReg(FPS4)  returns 0x00000000 (0000ms, 2018ms total)
T3CFC 029:779 JLINK_ReadReg(FPS5)  returns 0x00000000 (0000ms, 2018ms total)
T3CFC 029:779 JLINK_ReadReg(FPS6)  returns 0x00000000 (0000ms, 2018ms total)
T3CFC 029:779 JLINK_ReadReg(FPS7)  returns 0x00000000 (0000ms, 2018ms total)
T3CFC 029:779 JLINK_ReadReg(FPS8)  returns 0x00000000 (0000ms, 2018ms total)
T3CFC 029:779 JLINK_ReadReg(FPS9)  returns 0x00000000 (0000ms, 2018ms total)
T3CFC 029:779 JLINK_ReadReg(FPS10)  returns 0x00000000 (0000ms, 2018ms total)
T3CFC 029:779 JLINK_ReadReg(FPS11)  returns 0x00000000 (0000ms, 2018ms total)
T3CFC 029:779 JLINK_ReadReg(FPS12)  returns 0x00000000 (0000ms, 2018ms total)
T3CFC 029:779 JLINK_ReadReg(FPS13)  returns 0x00000000 (0000ms, 2018ms total)
T3CFC 029:779 JLINK_ReadReg(FPS14)  returns 0x00000000 (0000ms, 2018ms total)
T3CFC 029:779 JLINK_ReadReg(FPS15)  returns 0x00000000 (0000ms, 2018ms total)
T3CFC 029:779 JLINK_ReadReg(FPS16)  returns 0x00000000 (0000ms, 2018ms total)
T3CFC 029:779 JLINK_ReadReg(FPS17)  returns 0x00000000 (0001ms, 2019ms total)
T3CFC 029:780 JLINK_ReadReg(FPS18)  returns 0x00000000 (0000ms, 2019ms total)
T3CFC 029:780 JLINK_ReadReg(FPS19)  returns 0x00000000 (0000ms, 2019ms total)
T3CFC 029:780 JLINK_ReadReg(FPS20)  returns 0x00000000 (0000ms, 2019ms total)
T3CFC 029:780 JLINK_ReadReg(FPS21)  returns 0x00000000 (0000ms, 2019ms total)
T3CFC 029:780 JLINK_ReadReg(FPS22)  returns 0x00000000 (0000ms, 2019ms total)
T3CFC 029:780 JLINK_ReadReg(FPS23)  returns 0x00000000 (0000ms, 2019ms total)
T3CFC 029:780 JLINK_ReadReg(FPS24)  returns 0x00000000 (0000ms, 2019ms total)
T3CFC 029:780 JLINK_ReadReg(FPS25)  returns 0x00000000 (0000ms, 2019ms total)
T3CFC 029:780 JLINK_ReadReg(FPS26)  returns 0x00000000 (0000ms, 2019ms total)
T3CFC 029:780 JLINK_ReadReg(FPS27)  returns 0x00000000 (0000ms, 2019ms total)
T3CFC 029:780 JLINK_ReadReg(FPS28)  returns 0x00000000 (0000ms, 2019ms total)
T3CFC 029:780 JLINK_ReadReg(FPS29)  returns 0x00000000 (0000ms, 2019ms total)
T3CFC 029:780 JLINK_ReadReg(FPS30)  returns 0x00000000 (0000ms, 2019ms total)
T3CFC 029:780 JLINK_ReadReg(FPS31)  returns 0x00000000 (0000ms, 2019ms total)
T2140 029:785 JLINK_ReadMemEx(0x08001284, 0x003C Bytes, ..., AccessWidth = 33554432)Mis-aligned memory read: Address: 0x08001284, NumBytes: 60, Alignment: 2 (Halfword-aligned)
  ***** Mis-aligned memory read: Address: 0x08001284, NumBytes: 60, Alignment: 2 (Halfword-aligned) -- CPU_ReadMem(64 bytes @ 0x08001280) -- Updating DA cache (64 bytes @ 0x08001280) -- Read from DA cache (60 bytes @ 0x08001284) - Data: A8 42 0B D0 17 4D A8 42 08 D0 17 4D A8 42 05 D0 ...  returns 0x3C (0001ms, 2020ms total)
T2140 029:786 JLINK_ReadMemEx(0x080012C0, 0x003C Bytes, ..., AccessWidth = 33554432)Mis-aligned memory read: Address: 0x080012C0, NumBytes: 60, Alignment: 2 (Halfword-aligned)
  ***** Mis-aligned memory read: Address: 0x080012C0, NumBytes: 60, Alignment: 2 (Halfword-aligned) -- CPU_ReadMem(64 bytes @ 0x080012C0) -- Updating DA cache (64 bytes @ 0x080012C0) -- Read from DA cache (60 bytes @ 0x080012C0) - Data: 01 D1 09 69 01 63 01 21 41 61 F0 BD 00 00 01 40 ...  returns 0x3C (0002ms, 2022ms total)
T2140 029:788 JLINK_ReadMemEx(0x080012FC, 0x003C Bytes, ..., AccessWidth = 33554432)Mis-aligned memory read: Address: 0x080012FC, NumBytes: 60, Alignment: 2 (Halfword-aligned)
  ***** Mis-aligned memory read: Address: 0x080012FC, NumBytes: 60, Alignment: 2 (Halfword-aligned) -- CPU_ReadMem(64 bytes @ 0x08001300) -- Updating DA cache (64 bytes @ 0x08001300) -- Read from DA cache (60 bytes @ 0x080012FC) - Data: 42 EA 03 22 24 F4 7F 44 0A 43 22 43 82 60 10 BD ...  returns 0x3C (0001ms, 2023ms total)
T2140 029:789 JLINK_ReadMemEx(0x08001338, 0x003C Bytes, ..., AccessWidth = 33554432)Mis-aligned memory read: Address: 0x08001338, NumBytes: 60, Alignment: 2 (Halfword-aligned)
  ***** Mis-aligned memory read: Address: 0x08001338, NumBytes: 60, Alignment: 2 (Halfword-aligned) -- CPU_ReadMem(64 bytes @ 0x08001340) -- Updating DA cache (64 bytes @ 0x08001340) -- Read from DA cache (60 bytes @ 0x08001338) - Data: 84 61 02 62 10 BD 10 B5 03 6A 23 F0 10 03 03 62 ...  returns 0x3C (0001ms, 2024ms total)
T2140 029:790 JLINK_ReadMemEx(0x08001374, 0x003C Bytes, ..., AccessWidth = 33554432)Mis-aligned memory read: Address: 0x08001374, NumBytes: 60, Alignment: 2 (Halfword-aligned)
  ***** Mis-aligned memory read: Address: 0x08001374, NumBytes: 60, Alignment: 2 (Halfword-aligned) -- CPU_ReadMem(64 bytes @ 0x08001380) -- Updating DA cache (64 bytes @ 0x08001380) -- Read from DA cache (60 bytes @ 0x08001374) - Data: 70 47 00 F0 0F 00 00 F1 E0 20 80 F8 14 1D 70 47 ...  returns 0x3C (0002ms, 2026ms total)
T3CFC 032:897 JLINK_ReadMemEx(0x08001384, 0x0002 Bytes, ..., AccessWidth = 33554432)Mis-aligned memory read: Address: 0x08001384, NumBytes: 2, Alignment: 2 (Halfword-aligned)
  ***** Mis-aligned memory read: Address: 0x08001384, NumBytes: 2, Alignment: 2 (Halfword-aligned) -- Read from DA cache (2 bytes @ 0x08001384) - Data: FF F7  returns 0x02 (0011ms, 2037ms total)
T3CFC 032:908 JLINK_Go() -- CPU_ReadMem(4 bytes @ 0xE0001000) -- CPU_WriteMem(4 bytes @ 0xE0002008) (0003ms, 2040ms total)
T3CFC 033:012 JLINK_IsHalted()  returns FALSE (0000ms, 2040ms total)
T3CFC 033:113 JLINK_IsHalted()  returns FALSE (0001ms, 2041ms total)
T3CFC 033:214 JLINK_IsHalted()  returns FALSE (0000ms, 2040ms total)
T3CFC 033:315 JLINK_IsHalted()  returns FALSE (0000ms, 2040ms total)
T3CFC 033:416 JLINK_ReadMemU32(0xE0001004, 0x0001 Items, ...) -- CPU is running -- CPU_ReadMem(4 bytes @ 0xE0001004) - Data: 71 B0 0F 05  returns 0x01 (0001ms, 2041ms total)
T3CFC 033:417 JLINK_IsHalted()  returns FALSE (0001ms, 2042ms total)
T3CFC 033:518 JLINK_IsHalted()  returns FALSE (0000ms, 2041ms total)
T3CFC 033:620 JLINK_IsHalted()  returns FALSE (0000ms, 2041ms total)
T3CFC 033:721 JLINK_IsHalted()  returns FALSE (0000ms, 2041ms total)
T3CFC 033:821 JLINK_IsHalted()  returns FALSE (0001ms, 2042ms total)
T3CFC 033:922 JLINK_IsHalted()  returns FALSE (0001ms, 2042ms total)
T3CFC 034:023 JLINK_ReadMemU32(0xE0001004, 0x0001 Items, ...) -- CPU is running -- CPU_ReadMem(4 bytes @ 0xE0001004) - Data: 18 40 25 0B  returns 0x01 (0000ms, 2041ms total)
T3CFC 034:024 JLINK_IsHalted()  returns FALSE (0002ms, 2043ms total)
T3CFC 034:126 JLINK_IsHalted()  returns FALSE (0001ms, 2042ms total)
T3CFC 034:228 JLINK_IsHalted()  returns FALSE (0000ms, 2041ms total)
T3CFC 034:329 JLINK_IsHalted()  returns FALSE (0001ms, 2042ms total)
T3CFC 034:431 JLINK_IsHalted()  returns FALSE (0001ms, 2042ms total)
T2140 034:469 JLINK_ReadMemEx(0x40000000, 0x0004 Bytes, ..., AccessWidth = 33554432)Mis-aligned memory read: Address: 0x40000000, NumBytes: 4, Alignment: 2 (Halfword-aligned)
  ***** Mis-aligned memory read: Address: 0x40000000, NumBytes: 4, Alignment: 2 (Halfword-aligned) -- CPU is running -- CPU_ReadMem(4 bytes @ 0x40000000) - Data: 80 00 00 00  returns 0x04 (0001ms, 2042ms total)
T2140 034:470 JLINK_ReadMemEx(0x40000004, 0x0004 Bytes, ..., AccessWidth = 33554432)Mis-aligned memory read: Address: 0x40000004, NumBytes: 4, Alignment: 2 (Halfword-aligned)
  ***** Mis-aligned memory read: Address: 0x40000004, NumBytes: 4, Alignment: 2 (Halfword-aligned) -- CPU is running -- CPU_ReadMem(4 bytes @ 0x40000004) - Data: 00 00 00 00  returns 0x04 (0001ms, 2043ms total)
T2140 034:471 JLINK_ReadMemEx(0x40000008, 0x0004 Bytes, ..., AccessWidth = 33554432)Mis-aligned memory read: Address: 0x40000008, NumBytes: 4, Alignment: 2 (Halfword-aligned)
  ***** Mis-aligned memory read: Address: 0x40000008, NumBytes: 4, Alignment: 2 (Halfword-aligned) -- CPU is running -- CPU_ReadMem(4 bytes @ 0x40000008) - Data: 00 00 00 00  returns 0x04 (0001ms, 2044ms total)
T2140 034:472 JLINK_ReadMemEx(0x4000000C, 0x0004 Bytes, ..., AccessWidth = 33554432)Mis-aligned memory read: Address: 0x4000000C, NumBytes: 4, Alignment: 2 (Halfword-aligned)
  ***** Mis-aligned memory read: Address: 0x4000000C, NumBytes: 4, Alignment: 2 (Halfword-aligned) -- CPU is running -- CPU_ReadMem(4 bytes @ 0x4000000C) - Data: 00 00 00 00  returns 0x04 (0000ms, 2044ms total)
T2140 034:472 JLINK_ReadMemEx(0x40000010, 0x0004 Bytes, ..., AccessWidth = 33554432)Mis-aligned memory read: Address: 0x40000010, NumBytes: 4, Alignment: 2 (Halfword-aligned)
  ***** Mis-aligned memory read: Address: 0x40000010, NumBytes: 4, Alignment: 2 (Halfword-aligned) -- CPU is running -- CPU_ReadMem(4 bytes @ 0x40000010) - Data: 01 00 00 00  returns 0x04 (0000ms, 2044ms total)
T2140 034:472 JLINK_ReadMemEx(0x40000014, 0x0004 Bytes, ..., AccessWidth = 33554432)Mis-aligned memory read: Address: 0x40000014, NumBytes: 4, Alignment: 2 (Halfword-aligned)
  ***** Mis-aligned memory read: Address: 0x40000014, NumBytes: 4, Alignment: 2 (Halfword-aligned) -- CPU is running -- CPU_ReadMem(4 bytes @ 0x40000014) - Data: 00 00 00 00  returns 0x04 (0001ms, 2045ms total)
T2140 034:473 JLINK_ReadMemEx(0x40000018, 0x0004 Bytes, ..., AccessWidth = 33554432)Mis-aligned memory read: Address: 0x40000018, NumBytes: 4, Alignment: 2 (Halfword-aligned)
  ***** Mis-aligned memory read: Address: 0x40000018, NumBytes: 4, Alignment: 2 (Halfword-aligned) -- CPU is running -- CPU_ReadMem(4 bytes @ 0x40000018) - Data: 00 00 00 00  returns 0x04 (0001ms, 2046ms total)
T2140 034:474 JLINK_ReadMemEx(0x4000001C, 0x0004 Bytes, ..., AccessWidth = 33554432)Mis-aligned memory read: Address: 0x4000001C, NumBytes: 4, Alignment: 2 (Halfword-aligned)
  ***** Mis-aligned memory read: Address: 0x4000001C, NumBytes: 4, Alignment: 2 (Halfword-aligned) -- CPU is running -- CPU_ReadMem(4 bytes @ 0x4000001C) - Data: 00 00 00 00  returns 0x04 (0001ms, 2047ms total)
T2140 034:475 JLINK_ReadMemEx(0x40000020, 0x0004 Bytes, ..., AccessWidth = 33554432)Mis-aligned memory read: Address: 0x40000020, NumBytes: 4, Alignment: 2 (Halfword-aligned)
  ***** Mis-aligned memory read: Address: 0x40000020, NumBytes: 4, Alignment: 2 (Halfword-aligned) -- CPU is running -- CPU_ReadMem(4 bytes @ 0x40000020) - Data: 00 00 00 00  returns 0x04 (0001ms, 2048ms total)
T2140 034:476 JLINK_ReadMemEx(0x40000024, 0x0004 Bytes, ..., AccessWidth = 33554432)Mis-aligned memory read: Address: 0x40000024, NumBytes: 4, Alignment: 2 (Halfword-aligned)
  ***** Mis-aligned memory read: Address: 0x40000024, NumBytes: 4, Alignment: 2 (Halfword-aligned) -- CPU is running -- CPU_ReadMem(4 bytes @ 0x40000024) - Data: 00 00 00 00  returns 0x04 (0000ms, 2048ms total)
T2140 034:476 JLINK_ReadMemEx(0x40000028, 0x0004 Bytes, ..., AccessWidth = 33554432)Mis-aligned memory read: Address: 0x40000028, NumBytes: 4, Alignment: 2 (Halfword-aligned)
  ***** Mis-aligned memory read: Address: 0x40000028, NumBytes: 4, Alignment: 2 (Halfword-aligned) -- CPU is running -- CPU_ReadMem(4 bytes @ 0x40000028) - Data: 53 00 00 00  returns 0x04 (0001ms, 2049ms total)
T2140 034:477 JLINK_ReadMemEx(0x4000002C, 0x0004 Bytes, ..., AccessWidth = 33554432)Mis-aligned memory read: Address: 0x4000002C, NumBytes: 4, Alignment: 2 (Halfword-aligned)
  ***** Mis-aligned memory read: Address: 0x4000002C, NumBytes: 4, Alignment: 2 (Halfword-aligned) -- CPU is running -- CPU_ReadMem(4 bytes @ 0x4000002C) - Data: E7 03 00 00  returns 0x04 (0001ms, 2050ms total)
T2140 034:478 JLINK_ReadMemEx(0x40000030, 0x0004 Bytes, ..., AccessWidth = 33554432)Mis-aligned memory read: Address: 0x40000030, NumBytes: 4, Alignment: 2 (Halfword-aligned)
  ***** Mis-aligned memory read: Address: 0x40000030, NumBytes: 4, Alignment: 2 (Halfword-aligned) -- CPU is running -- CPU_ReadMem(4 bytes @ 0x40000030) - Data: 00 00 00 00  returns 0x04 (0000ms, 2050ms total)
T2140 034:478 JLINK_ReadMemEx(0x40000034, 0x0004 Bytes, ..., AccessWidth = 33554432)Mis-aligned memory read: Address: 0x40000034, NumBytes: 4, Alignment: 2 (Halfword-aligned)
  ***** Mis-aligned memory read: Address: 0x40000034, NumBytes: 4, Alignment: 2 (Halfword-aligned) -- CPU is running -- CPU_ReadMem(4 bytes @ 0x40000034) - Data: 00 00 00 00  returns 0x04 (0001ms, 2051ms total)
T2140 034:479 JLINK_ReadMemEx(0x40000038, 0x0004 Bytes, ..., AccessWidth = 33554432)Mis-aligned memory read: Address: 0x40000038, NumBytes: 4, Alignment: 2 (Halfword-aligned)
  ***** Mis-aligned memory read: Address: 0x40000038, NumBytes: 4, Alignment: 2 (Halfword-aligned) -- CPU is running -- CPU_ReadMem(4 bytes @ 0x40000038) - Data: 00 00 00 00  returns 0x04 (0001ms, 2052ms total)
T2140 034:480 JLINK_ReadMemEx(0x4000003C, 0x0004 Bytes, ..., AccessWidth = 33554432)Mis-aligned memory read: Address: 0x4000003C, NumBytes: 4, Alignment: 2 (Halfword-aligned)
  ***** Mis-aligned memory read: Address: 0x4000003C, NumBytes: 4, Alignment: 2 (Halfword-aligned) -- CPU is running -- CPU_ReadMem(4 bytes @ 0x4000003C) - Data: 00 00 00 00  returns 0x04 (0000ms, 2052ms total)
T2140 034:480 JLINK_ReadMemEx(0x40000040, 0x0004 Bytes, ..., AccessWidth = 33554432)Mis-aligned memory read: Address: 0x40000040, NumBytes: 4, Alignment: 2 (Halfword-aligned)
  ***** Mis-aligned memory read: Address: 0x40000040, NumBytes: 4, Alignment: 2 (Halfword-aligned) -- CPU is running -- CPU_ReadMem(4 bytes @ 0x40000040) - Data: 00 00 00 00  returns 0x04 (0001ms, 2053ms total)
T2140 034:481 JLINK_ReadMemEx(0x40000044, 0x0004 Bytes, ..., AccessWidth = 33554432)Mis-aligned memory read: Address: 0x40000044, NumBytes: 4, Alignment: 2 (Halfword-aligned)
  ***** Mis-aligned memory read: Address: 0x40000044, NumBytes: 4, Alignment: 2 (Halfword-aligned) -- CPU is running -- CPU_ReadMem(4 bytes @ 0x40000044) - Data: 00 00 00 00  returns 0x04 (0001ms, 2054ms total)
T2140 034:482 JLINK_ReadMemEx(0x40000048, 0x0004 Bytes, ..., AccessWidth = 33554432)Mis-aligned memory read: Address: 0x40000048, NumBytes: 4, Alignment: 2 (Halfword-aligned)
  ***** Mis-aligned memory read: Address: 0x40000048, NumBytes: 4, Alignment: 2 (Halfword-aligned) -- CPU is running -- CPU_ReadMem(4 bytes @ 0x40000048) - Data: 00 00 00 00  returns 0x04 (0000ms, 2054ms total)
T2140 034:482 JLINK_ReadMemEx(0x4000004C, 0x0004 Bytes, ..., AccessWidth = 33554432)Mis-aligned memory read: Address: 0x4000004C, NumBytes: 4, Alignment: 2 (Halfword-aligned)
  ***** Mis-aligned memory read: Address: 0x4000004C, NumBytes: 4, Alignment: 2 (Halfword-aligned) -- CPU is running -- CPU_ReadMem(4 bytes @ 0x4000004C) - Data: 80 00 00 00  returns 0x04 (0001ms, 2055ms total)
T2140 034:483 JLINK_ReadMemEx(0x40000050, 0x0004 Bytes, ..., AccessWidth = 33554432)Mis-aligned memory read: Address: 0x40000050, NumBytes: 4, Alignment: 2 (Halfword-aligned)
  ***** Mis-aligned memory read: Address: 0x40000050, NumBytes: 4, Alignment: 2 (Halfword-aligned) -- CPU is running -- CPU_ReadMem(4 bytes @ 0x40000050) - Data: 00 00 00 00  returns 0x04 (0001ms, 2056ms total)
T2140 034:484 JLINK_ReadMemEx(0x40000000, 0x0004 Bytes, ..., AccessWidth = 33554432)Mis-aligned memory read: Address: 0x40000000, NumBytes: 4, Alignment: 2 (Halfword-aligned)
  ***** Mis-aligned memory read: Address: 0x40000000, NumBytes: 4, Alignment: 2 (Halfword-aligned) -- CPU is running -- CPU_ReadMem(4 bytes @ 0x40000000) - Data: 80 00 00 00  returns 0x04 (0000ms, 2056ms total)
T2140 034:484 JLINK_ReadMemEx(0x40000004, 0x0004 Bytes, ..., AccessWidth = 33554432)Mis-aligned memory read: Address: 0x40000004, NumBytes: 4, Alignment: 2 (Halfword-aligned)
  ***** Mis-aligned memory read: Address: 0x40000004, NumBytes: 4, Alignment: 2 (Halfword-aligned) -- CPU is running -- CPU_ReadMem(4 bytes @ 0x40000004) - Data: 00 00 00 00  returns 0x04 (0001ms, 2057ms total)
T2140 034:485 JLINK_ReadMemEx(0x40000008, 0x0004 Bytes, ..., AccessWidth = 33554432)Mis-aligned memory read: Address: 0x40000008, NumBytes: 4, Alignment: 2 (Halfword-aligned)
  ***** Mis-aligned memory read: Address: 0x40000008, NumBytes: 4, Alignment: 2 (Halfword-aligned) -- CPU is running -- CPU_ReadMem(4 bytes @ 0x40000008) - Data: 00 00 00 00  returns 0x04 (0001ms, 2058ms total)
T2140 034:486 JLINK_ReadMemEx(0x4000000C, 0x0004 Bytes, ..., AccessWidth = 33554432)Mis-aligned memory read: Address: 0x4000000C, NumBytes: 4, Alignment: 2 (Halfword-aligned)
  ***** Mis-aligned memory read: Address: 0x4000000C, NumBytes: 4, Alignment: 2 (Halfword-aligned) -- CPU is running -- CPU_ReadMem(4 bytes @ 0x4000000C) - Data: 00 00 00 00  returns 0x04 (0000ms, 2058ms total)
T2140 034:486 JLINK_ReadMemEx(0x40000010, 0x0004 Bytes, ..., AccessWidth = 33554432)Mis-aligned memory read: Address: 0x40000010, NumBytes: 4, Alignment: 2 (Halfword-aligned)
  ***** Mis-aligned memory read: Address: 0x40000010, NumBytes: 4, Alignment: 2 (Halfword-aligned) -- CPU is running -- CPU_ReadMem(4 bytes @ 0x40000010) - Data: 01 00 00 00  returns 0x04 (0001ms, 2059ms total)
T2140 034:487 JLINK_ReadMemEx(0x40000014, 0x0004 Bytes, ..., AccessWidth = 33554432)Mis-aligned memory read: Address: 0x40000014, NumBytes: 4, Alignment: 2 (Halfword-aligned)
  ***** Mis-aligned memory read: Address: 0x40000014, NumBytes: 4, Alignment: 2 (Halfword-aligned) -- CPU is running -- CPU_ReadMem(4 bytes @ 0x40000014) - Data: 00 00 00 00  returns 0x04 (0001ms, 2060ms total)
T2140 034:488 JLINK_ReadMemEx(0x40000018, 0x0004 Bytes, ..., AccessWidth = 33554432)Mis-aligned memory read: Address: 0x40000018, NumBytes: 4, Alignment: 2 (Halfword-aligned)
  ***** Mis-aligned memory read: Address: 0x40000018, NumBytes: 4, Alignment: 2 (Halfword-aligned) -- CPU is running -- CPU_ReadMem(4 bytes @ 0x40000018) - Data: 00 00 00 00  returns 0x04 (0000ms, 2060ms total)
T2140 034:488 JLINK_ReadMemEx(0x4000001C, 0x0004 Bytes, ..., AccessWidth = 33554432)Mis-aligned memory read: Address: 0x4000001C, NumBytes: 4, Alignment: 2 (Halfword-aligned)
  ***** Mis-aligned memory read: Address: 0x4000001C, NumBytes: 4, Alignment: 2 (Halfword-aligned) -- CPU is running -- CPU_ReadMem(4 bytes @ 0x4000001C) - Data: 00 00 00 00  returns 0x04 (0000ms, 2060ms total)
T2140 034:488 JLINK_ReadMemEx(0x40000020, 0x0004 Bytes, ..., AccessWidth = 33554432)Mis-aligned memory read: Address: 0x40000020, NumBytes: 4, Alignment: 2 (Halfword-aligned)
  ***** Mis-aligned memory read: Address: 0x40000020, NumBytes: 4, Alignment: 2 (Halfword-aligned) -- CPU is running -- CPU_ReadMem(4 bytes @ 0x40000020) - Data: 00 00 00 00  returns 0x04 (0002ms, 2062ms total)
T2140 034:490 JLINK_ReadMemEx(0x40000024, 0x0004 Bytes, ..., AccessWidth = 33554432)Mis-aligned memory read: Address: 0x40000024, NumBytes: 4, Alignment: 2 (Halfword-aligned)
  ***** Mis-aligned memory read: Address: 0x40000024, NumBytes: 4, Alignment: 2 (Halfword-aligned) -- CPU is running -- CPU_ReadMem(4 bytes @ 0x40000024) - Data: 00 00 00 00  returns 0x04 (0000ms, 2062ms total)
T2140 034:490 JLINK_ReadMemEx(0x40000028, 0x0004 Bytes, ..., AccessWidth = 33554432)Mis-aligned memory read: Address: 0x40000028, NumBytes: 4, Alignment: 2 (Halfword-aligned)
  ***** Mis-aligned memory read: Address: 0x40000028, NumBytes: 4, Alignment: 2 (Halfword-aligned) -- CPU is running -- CPU_ReadMem(4 bytes @ 0x40000028) - Data: 53 00 00 00  returns 0x04 (0001ms, 2063ms total)
T2140 034:491 JLINK_ReadMemEx(0x4000002C, 0x0004 Bytes, ..., AccessWidth = 33554432)Mis-aligned memory read: Address: 0x4000002C, NumBytes: 4, Alignment: 2 (Halfword-aligned)
  ***** Mis-aligned memory read: Address: 0x4000002C, NumBytes: 4, Alignment: 2 (Halfword-aligned) -- CPU is running -- CPU_ReadMem(4 bytes @ 0x4000002C) - Data: E7 03 00 00  returns 0x04 (0001ms, 2064ms total)
T2140 034:492 JLINK_ReadMemEx(0x40000030, 0x0004 Bytes, ..., AccessWidth = 33554432)Mis-aligned memory read: Address: 0x40000030, NumBytes: 4, Alignment: 2 (Halfword-aligned)
  ***** Mis-aligned memory read: Address: 0x40000030, NumBytes: 4, Alignment: 2 (Halfword-aligned) -- CPU is running -- CPU_ReadMem(4 bytes @ 0x40000030) - Data: 00 00 00 00  returns 0x04 (0000ms, 2064ms total)
T2140 034:492 JLINK_ReadMemEx(0x40000034, 0x0004 Bytes, ..., AccessWidth = 33554432)Mis-aligned memory read: Address: 0x40000034, NumBytes: 4, Alignment: 2 (Halfword-aligned)
  ***** Mis-aligned memory read: Address: 0x40000034, NumBytes: 4, Alignment: 2 (Halfword-aligned) -- CPU is running -- CPU_ReadMem(4 bytes @ 0x40000034) - Data: 00 00 00 00  returns 0x04 (0001ms, 2065ms total)
T2140 034:493 JLINK_ReadMemEx(0x40000038, 0x0004 Bytes, ..., AccessWidth = 33554432)Mis-aligned memory read: Address: 0x40000038, NumBytes: 4, Alignment: 2 (Halfword-aligned)
  ***** Mis-aligned memory read: Address: 0x40000038, NumBytes: 4, Alignment: 2 (Halfword-aligned) -- CPU is running -- CPU_ReadMem(4 bytes @ 0x40000038) - Data: 00 00 00 00  returns 0x04 (0001ms, 2066ms total)
T2140 034:494 JLINK_ReadMemEx(0x4000003C, 0x0004 Bytes, ..., AccessWidth = 33554432)Mis-aligned memory read: Address: 0x4000003C, NumBytes: 4, Alignment: 2 (Halfword-aligned)
  ***** Mis-aligned memory read: Address: 0x4000003C, NumBytes: 4, Alignment: 2 (Halfword-aligned) -- CPU is running -- CPU_ReadMem(4 bytes @ 0x4000003C) - Data: 00 00 00 00  returns 0x04 (0000ms, 2066ms total)
T2140 034:494 JLINK_ReadMemEx(0x40000040, 0x0004 Bytes, ..., AccessWidth = 33554432)Mis-aligned memory read: Address: 0x40000040, NumBytes: 4, Alignment: 2 (Halfword-aligned)
  ***** Mis-aligned memory read: Address: 0x40000040, NumBytes: 4, Alignment: 2 (Halfword-aligned) -- CPU is running -- CPU_ReadMem(4 bytes @ 0x40000040) - Data: 00 00 00 00  returns 0x04 (0001ms, 2067ms total)
T2140 034:495 JLINK_ReadMemEx(0x40000044, 0x0004 Bytes, ..., AccessWidth = 33554432)Mis-aligned memory read: Address: 0x40000044, NumBytes: 4, Alignment: 2 (Halfword-aligned)
  ***** Mis-aligned memory read: Address: 0x40000044, NumBytes: 4, Alignment: 2 (Halfword-aligned) -- CPU is running -- CPU_ReadMem(4 bytes @ 0x40000044) - Data: 00 00 00 00  returns 0x04 (0001ms, 2068ms total)
T2140 034:496 JLINK_ReadMemEx(0x40000048, 0x0004 Bytes, ..., AccessWidth = 33554432)Mis-aligned memory read: Address: 0x40000048, NumBytes: 4, Alignment: 2 (Halfword-aligned)
  ***** Mis-aligned memory read: Address: 0x40000048, NumBytes: 4, Alignment: 2 (Halfword-aligned) -- CPU is running -- CPU_ReadMem(4 bytes @ 0x40000048) - Data: 00 00 00 00  returns 0x04 (0000ms, 2068ms total)
T2140 034:496 JLINK_ReadMemEx(0x4000004C, 0x0004 Bytes, ..., AccessWidth = 33554432)Mis-aligned memory read: Address: 0x4000004C, NumBytes: 4, Alignment: 2 (Halfword-aligned)
  ***** Mis-aligned memory read: Address: 0x4000004C, NumBytes: 4, Alignment: 2 (Halfword-aligned) -- CPU is running -- CPU_ReadMem(4 bytes @ 0x4000004C) - Data: 80 00 00 00  returns 0x04 (0001ms, 2069ms total)
T2140 034:497 JLINK_ReadMemEx(0x40000050, 0x0004 Bytes, ..., AccessWidth = 33554432)Mis-aligned memory read: Address: 0x40000050, NumBytes: 4, Alignment: 2 (Halfword-aligned)
  ***** Mis-aligned memory read: Address: 0x40000050, NumBytes: 4, Alignment: 2 (Halfword-aligned) -- CPU is running -- CPU_ReadMem(4 bytes @ 0x40000050) - Data: 00 00 00 00  returns 0x04 (0001ms, 2070ms total)
T2140 034:510 JLINK_ReadMemEx(0x40000000, 0x0004 Bytes, ..., AccessWidth = 33554432)Mis-aligned memory read: Address: 0x40000000, NumBytes: 4, Alignment: 2 (Halfword-aligned)
  ***** Mis-aligned memory read: Address: 0x40000000, NumBytes: 4, Alignment: 2 (Halfword-aligned) -- CPU is running -- CPU_ReadMem(4 bytes @ 0x40000000) - Data: 80 00 00 00  returns 0x04 (0001ms, 2071ms total)
T2140 034:511 JLINK_ReadMemEx(0x40000004, 0x0004 Bytes, ..., AccessWidth = 33554432)Mis-aligned memory read: Address: 0x40000004, NumBytes: 4, Alignment: 2 (Halfword-aligned)
  ***** Mis-aligned memory read: Address: 0x40000004, NumBytes: 4, Alignment: 2 (Halfword-aligned) -- CPU is running -- CPU_ReadMem(4 bytes @ 0x40000004) - Data: 00 00 00 00  returns 0x04 (0000ms, 2071ms total)
T2140 034:511 JLINK_ReadMemEx(0x40000008, 0x0004 Bytes, ..., AccessWidth = 33554432)Mis-aligned memory read: Address: 0x40000008, NumBytes: 4, Alignment: 2 (Halfword-aligned)
  ***** Mis-aligned memory read: Address: 0x40000008, NumBytes: 4, Alignment: 2 (Halfword-aligned) -- CPU is running -- CPU_ReadMem(4 bytes @ 0x40000008) - Data: 00 00 00 00  returns 0x04 (0001ms, 2072ms total)
T2140 034:512 JLINK_ReadMemEx(0x4000000C, 0x0004 Bytes, ..., AccessWidth = 33554432)Mis-aligned memory read: Address: 0x4000000C, NumBytes: 4, Alignment: 2 (Halfword-aligned)
  ***** Mis-aligned memory read: Address: 0x4000000C, NumBytes: 4, Alignment: 2 (Halfword-aligned) -- CPU is running -- CPU_ReadMem(4 bytes @ 0x4000000C) - Data: 00 00 00 00  returns 0x04 (0001ms, 2073ms total)
T2140 034:513 JLINK_ReadMemEx(0x40000010, 0x0004 Bytes, ..., AccessWidth = 33554432)Mis-aligned memory read: Address: 0x40000010, NumBytes: 4, Alignment: 2 (Halfword-aligned)
  ***** Mis-aligned memory read: Address: 0x40000010, NumBytes: 4, Alignment: 2 (Halfword-aligned) -- CPU is running -- CPU_ReadMem(4 bytes @ 0x40000010) - Data: 01 00 00 00  returns 0x04 (0000ms, 2073ms total)
T2140 034:513 JLINK_ReadMemEx(0x40000014, 0x0004 Bytes, ..., AccessWidth = 33554432)Mis-aligned memory read: Address: 0x40000014, NumBytes: 4, Alignment: 2 (Halfword-aligned)
  ***** Mis-aligned memory read: Address: 0x40000014, NumBytes: 4, Alignment: 2 (Halfword-aligned) -- CPU is running -- CPU_ReadMem(4 bytes @ 0x40000014) - Data: 00 00 00 00  returns 0x04 (0001ms, 2074ms total)
T2140 034:514 JLINK_ReadMemEx(0x40000018, 0x0004 Bytes, ..., AccessWidth = 33554432)Mis-aligned memory read: Address: 0x40000018, NumBytes: 4, Alignment: 2 (Halfword-aligned)
  ***** Mis-aligned memory read: Address: 0x40000018, NumBytes: 4, Alignment: 2 (Halfword-aligned) -- CPU is running -- CPU_ReadMem(4 bytes @ 0x40000018) - Data: 00 00 00 00  returns 0x04 (0001ms, 2075ms total)
T2140 034:515 JLINK_ReadMemEx(0x4000001C, 0x0004 Bytes, ..., AccessWidth = 33554432)Mis-aligned memory read: Address: 0x4000001C, NumBytes: 4, Alignment: 2 (Halfword-aligned)
  ***** Mis-aligned memory read: Address: 0x4000001C, NumBytes: 4, Alignment: 2 (Halfword-aligned) -- CPU is running -- CPU_ReadMem(4 bytes @ 0x4000001C) - Data: 00 00 00 00  returns 0x04 (0000ms, 2075ms total)
T2140 034:515 JLINK_ReadMemEx(0x40000020, 0x0004 Bytes, ..., AccessWidth = 33554432)Mis-aligned memory read: Address: 0x40000020, NumBytes: 4, Alignment: 2 (Halfword-aligned)
  ***** Mis-aligned memory read: Address: 0x40000020, NumBytes: 4, Alignment: 2 (Halfword-aligned) -- CPU is running -- CPU_ReadMem(4 bytes @ 0x40000020) - Data: 00 00 00 00  returns 0x04 (0001ms, 2076ms total)
T2140 034:516 JLINK_ReadMemEx(0x40000024, 0x0004 Bytes, ..., AccessWidth = 33554432)Mis-aligned memory read: Address: 0x40000024, NumBytes: 4, Alignment: 2 (Halfword-aligned)
  ***** Mis-aligned memory read: Address: 0x40000024, NumBytes: 4, Alignment: 2 (Halfword-aligned) -- CPU is running -- CPU_ReadMem(4 bytes @ 0x40000024) - Data: 00 00 00 00  returns 0x04 (0001ms, 2077ms total)
T2140 034:517 JLINK_ReadMemEx(0x40000028, 0x0004 Bytes, ..., AccessWidth = 33554432)Mis-aligned memory read: Address: 0x40000028, NumBytes: 4, Alignment: 2 (Halfword-aligned)
  ***** Mis-aligned memory read: Address: 0x40000028, NumBytes: 4, Alignment: 2 (Halfword-aligned) -- CPU is running -- CPU_ReadMem(4 bytes @ 0x40000028) - Data: 53 00 00 00  returns 0x04 (0000ms, 2077ms total)
T2140 034:517 JLINK_ReadMemEx(0x4000002C, 0x0004 Bytes, ..., AccessWidth = 33554432)Mis-aligned memory read: Address: 0x4000002C, NumBytes: 4, Alignment: 2 (Halfword-aligned)
  ***** Mis-aligned memory read: Address: 0x4000002C, NumBytes: 4, Alignment: 2 (Halfword-aligned) -- CPU is running -- CPU_ReadMem(4 bytes @ 0x4000002C) - Data: E7 03 00 00  returns 0x04 (0001ms, 2078ms total)
T2140 034:518 JLINK_ReadMemEx(0x40000030, 0x0004 Bytes, ..., AccessWidth = 33554432)Mis-aligned memory read: Address: 0x40000030, NumBytes: 4, Alignment: 2 (Halfword-aligned)
  ***** Mis-aligned memory read: Address: 0x40000030, NumBytes: 4, Alignment: 2 (Halfword-aligned) -- CPU is running -- CPU_ReadMem(4 bytes @ 0x40000030) - Data: 00 00 00 00  returns 0x04 (0001ms, 2079ms total)
T2140 034:519 JLINK_ReadMemEx(0x40000034, 0x0004 Bytes, ..., AccessWidth = 33554432)Mis-aligned memory read: Address: 0x40000034, NumBytes: 4, Alignment: 2 (Halfword-aligned)
  ***** Mis-aligned memory read: Address: 0x40000034, NumBytes: 4, Alignment: 2 (Halfword-aligned) -- CPU is running -- CPU_ReadMem(4 bytes @ 0x40000034) - Data: 00 00 00 00  returns 0x04 (0000ms, 2079ms total)
T2140 034:519 JLINK_ReadMemEx(0x40000038, 0x0004 Bytes, ..., AccessWidth = 33554432)Mis-aligned memory read: Address: 0x40000038, NumBytes: 4, Alignment: 2 (Halfword-aligned)
  ***** Mis-aligned memory read: Address: 0x40000038, NumBytes: 4, Alignment: 2 (Halfword-aligned) -- CPU is running -- CPU_ReadMem(4 bytes @ 0x40000038) - Data: 00 00 00 00  returns 0x04 (0001ms, 2080ms total)
T2140 034:520 JLINK_ReadMemEx(0x4000003C, 0x0004 Bytes, ..., AccessWidth = 33554432)Mis-aligned memory read: Address: 0x4000003C, NumBytes: 4, Alignment: 2 (Halfword-aligned)
  ***** Mis-aligned memory read: Address: 0x4000003C, NumBytes: 4, Alignment: 2 (Halfword-aligned) -- CPU is running -- CPU_ReadMem(4 bytes @ 0x4000003C) - Data: 00 00 00 00  returns 0x04 (0001ms, 2081ms total)
T2140 034:521 JLINK_ReadMemEx(0x40000040, 0x0004 Bytes, ..., AccessWidth = 33554432)Mis-aligned memory read: Address: 0x40000040, NumBytes: 4, Alignment: 2 (Halfword-aligned)
  ***** Mis-aligned memory read: Address: 0x40000040, NumBytes: 4, Alignment: 2 (Halfword-aligned) -- CPU is running -- CPU_ReadMem(4 bytes @ 0x40000040) - Data: 00 00 00 00  returns 0x04 (0000ms, 2081ms total)
T2140 034:521 JLINK_ReadMemEx(0x40000044, 0x0004 Bytes, ..., AccessWidth = 33554432)Mis-aligned memory read: Address: 0x40000044, NumBytes: 4, Alignment: 2 (Halfword-aligned)
  ***** Mis-aligned memory read: Address: 0x40000044, NumBytes: 4, Alignment: 2 (Halfword-aligned) -- CPU is running -- CPU_ReadMem(4 bytes @ 0x40000044) - Data: 00 00 00 00  returns 0x04 (0001ms, 2082ms total)
T2140 034:522 JLINK_ReadMemEx(0x40000048, 0x0004 Bytes, ..., AccessWidth = 33554432)Mis-aligned memory read: Address: 0x40000048, NumBytes: 4, Alignment: 2 (Halfword-aligned)
  ***** Mis-aligned memory read: Address: 0x40000048, NumBytes: 4, Alignment: 2 (Halfword-aligned) -- CPU is running -- CPU_ReadMem(4 bytes @ 0x40000048) - Data: 00 00 00 00  returns 0x04 (0001ms, 2083ms total)
T2140 034:523 JLINK_ReadMemEx(0x4000004C, 0x0004 Bytes, ..., AccessWidth = 33554432)Mis-aligned memory read: Address: 0x4000004C, NumBytes: 4, Alignment: 2 (Halfword-aligned)
  ***** Mis-aligned memory read: Address: 0x4000004C, NumBytes: 4, Alignment: 2 (Halfword-aligned) -- CPU is running -- CPU_ReadMem(4 bytes @ 0x4000004C) - Data: 80 00 00 00  returns 0x04 (0000ms, 2083ms total)
T2140 034:523 JLINK_ReadMemEx(0x40000050, 0x0004 Bytes, ..., AccessWidth = 33554432)Mis-aligned memory read: Address: 0x40000050, NumBytes: 4, Alignment: 2 (Halfword-aligned)
  ***** Mis-aligned memory read: Address: 0x40000050, NumBytes: 4, Alignment: 2 (Halfword-aligned) -- CPU is running -- CPU_ReadMem(4 bytes @ 0x40000050) - Data: 00 00 00 00  returns 0x04 (0001ms, 2084ms total)
T3CFC 034:532 JLINK_IsHalted()  returns FALSE (0000ms, 2084ms total)
T3CFC 034:633 JLINK_ReadMemU32(0xE0001004, 0x0001 Items, ...) -- CPU is running -- CPU_ReadMem(4 bytes @ 0xE0001004) - Data: 15 77 3F 11  returns 0x01 (0000ms, 2084ms total)
T2140 034:634 JLINK_ReadMemEx(0x40000000, 0x0004 Bytes, ..., AccessWidth = 33554432)Mis-aligned memory read: Address: 0x40000000, NumBytes: 4, Alignment: 2 (Halfword-aligned)
  ***** Mis-aligned memory read: Address: 0x40000000, NumBytes: 4, Alignment: 2 (Halfword-aligned) -- CPU is running -- CPU_ReadMem(4 bytes @ 0x40000000) - Data: 80 00 00 00  returns 0x04 (0001ms, 2085ms total)
T2140 034:635 JLINK_ReadMemEx(0x40000004, 0x0004 Bytes, ..., AccessWidth = 33554432)Mis-aligned memory read: Address: 0x40000004, NumBytes: 4, Alignment: 2 (Halfword-aligned)
  ***** Mis-aligned memory read: Address: 0x40000004, NumBytes: 4, Alignment: 2 (Halfword-aligned) -- CPU is running -- CPU_ReadMem(4 bytes @ 0x40000004) - Data: 00 00 00 00  returns 0x04 (0001ms, 2086ms total)
